T0F68 000:018.724   SEGGER J-Link V7.94c Log File
T0F68 000:018.878   DLL Compiled: Jan  3 2024 15:15:42
T0F68 000:018.887   Logging started @ 2024-08-01 22:25
T0F68 000:018.895   Process: C:\Keil_v5\UV4\UV4.exe
T0F68 000:018.905 - 18.902ms
T0F68 000:018.919 JLINK_SetWarnOutHandler(...)
T0F68 000:018.928 - 0.010ms
T0F68 000:018.937 JLINK_OpenEx(...)
T0F68 000:021.128   Firmware: J-Link V9 compiled May  7 2021 16:26:12
T0F68 000:021.761   Firmware: J-Link V9 compiled May  7 2021 16:26:12
T0F68 000:021.926   Decompressing FW timestamp took 131 us
T0F68 000:028.239   Hardware: V9.40
T0F68 000:028.259   S/N: 69402426
T0F68 000:028.271   OEM: SEGGER
T0F68 000:028.282   Feature(s): RDI, GDB, FlashDL, FlashBP, JFlash
T0F68 000:028.887   Bootloader: (Could not read)
T0F68 000:029.669   TELNET listener socket opened on port 19021
T0F68 000:029.859   WEBSRV WEBSRV_Init(): Starting webserver thread(s)
T0F68 000:030.677   WEBSRV Webserver running on local port 19080
T0F68 000:030.901   Looking for J-Link GUI Server exe at: C:\Keil_v5\ARM\Segger\JLinkGUIServer.exe
T0F68 000:031.076   Looking for J-Link GUI Server exe at: C:\Program Files (x86)\SEGGER\JLink_V722b\JLinkGUIServer.exe
T0F68 000:031.134   Forking J-Link GUI Server: C:\Program Files (x86)\SEGGER\JLink_V722b\JLinkGUIServer.exe
T0F68 000:037.000   J-Link GUI Server info: "J-Link GUI server V7.22b "
T0F68 000:037.253   J-Link GUI Server: Connection breakdown.
T0F68 000:037.348 - 18.403ms returns "O.K."
T0F68 000:037.381 JLINK_GetEmuCaps()
T0F68 000:037.393 - 0.009ms returns 0xB9FF7BBF
T0F68 000:037.408 JLINK_TIF_GetAvailable(...)
T0F68 000:037.580 - 0.173ms
T0F68 000:037.605 JLINK_SetErrorOutHandler(...)
T0F68 000:037.613 - 0.008ms
T0F68 000:037.643 JLINK_ExecCommand("ProjectFile = "C:\Users\Z\Desktop\RM\HERO\HERO_GIMBAL_TL.V2.0.0\MDK-ARM\JLinkSettings.ini"", ...). 
T0F68 000:053.201   Ref file found at: C:\Keil_v5\ARM\Segger\JLinkDevices.ref
T0F68 000:053.329   REF file references invalid XML file: C:\Program Files\SEGGER\JLink_V794c\JLinkDevices.xml
T0F68 000:054.785 - 17.143ms returns 0x00
T0F68 000:054.848 JLINK_ExecCommand("Device = STM32F407VETx", ...). 
T0F68 000:056.085   Device "STM32F407VE" selected.
T0F68 000:056.587 - 1.725ms returns 0x00
T0F68 000:056.605 JLINK_ExecCommand("DisableConnectionTimeout", ...). 
T0F68 000:056.619 - 0.002ms returns 0x01
T0F68 000:056.630 JLINK_GetHardwareVersion()
T0F68 000:056.642 - 0.008ms returns 94000
T0F68 000:056.654 JLINK_GetDLLVersion()
T0F68 000:056.662 - 0.008ms returns 79403
T0F68 000:056.672 JLINK_GetOEMString(...)
T0F68 000:056.682 JLINK_GetFirmwareString(...)
T0F68 000:056.690 - 0.008ms
T0F68 000:056.720 JLINK_GetDLLVersion()
T0F68 000:056.729 - 0.008ms returns 79403
T0F68 000:056.738 JLINK_GetCompileDateTime()
T0F68 000:056.746 - 0.007ms
T0F68 000:056.762 JLINK_GetFirmwareString(...)
T0F68 000:056.770 - 0.008ms
T0F68 000:056.785 JLINK_GetHardwareVersion()
T0F68 000:056.793 - 0.008ms returns 94000
T0F68 000:056.808 JLINK_GetSN()
T0F68 000:056.816 - 0.008ms returns 69402426
T0F68 000:056.830 JLINK_GetOEMString(...)
T0F68 000:056.867 JLINK_TIF_Select(JLINKARM_TIF_SWD)
T0F68 000:057.470 - 0.602ms returns 0x00
T0F68 000:057.489 JLINK_HasError()
T0F68 000:057.514 JLINK_SetSpeed(5000)
T0F68 000:057.604 - 0.091ms
T0F68 000:057.624 JLINK_GetId()
T0F68 000:057.806   InitTarget() start
T0F68 000:057.824    J-Link Script File: Executing InitTarget()
T0F68 000:057.998   SWD selected. Executing JTAG -> SWD switching sequence.
T0F68 000:059.710   DAP initialized successfully.
T0F68 000:064.566   InitTarget() end - Took 6.70ms
T0F68 000:065.164   Found SW-DP with ID 0x2BA01477
T0F68 000:067.089   DPIDR: 0x2BA01477
T0F68 000:067.113   CoreSight SoC-400 or earlier
T0F68 000:067.131   Scanning AP map to find all available APs
T0F68 000:067.664   AP[1]: Stopped AP scan as end of AP map has been reached
T0F68 000:067.692   AP[0]: AHB-AP (IDR: 0x24770011)
T0F68 000:067.708   Iterating through AP map to find AHB-AP to use
T0F68 000:068.609   AP[0]: Core found
T0F68 000:068.634   AP[0]: AHB-AP ROM base: 0xE00FF000
T0F68 000:069.085   CPUID register: 0x410FC241. Implementer code: 0x41 (ARM)
T0F68 000:069.111   Found Cortex-M4 r0p1, Little endian.
T0F68 000:069.413   -- Max. mem block: 0x00010E60
T0F68 000:069.807   CPU_ReadMem(4 bytes @ 0xE000EDF0)
T0F68 000:070.146   CPU_ReadMem(4 bytes @ 0xE0002000)
T0F68 000:070.476   FPUnit: 6 code (BP) slots and 2 literal slots
T0F68 000:070.503   CPU_ReadMem(4 bytes @ 0xE000EDFC)
T0F68 000:070.897   CPU_WriteMem(4 bytes @ 0xE000EDFC)
T0F68 000:071.236   CPU_ReadMem(4 bytes @ 0xE0001000)
T0F68 000:071.549   CPU_WriteMem(4 bytes @ 0xE0001000)
T0F68 000:071.892   CPU_ReadMem(4 bytes @ 0xE000ED88)
T0F68 000:072.196   CPU_WriteMem(4 bytes @ 0xE000ED88)
T0F68 000:072.521   CPU_ReadMem(4 bytes @ 0xE000ED88)
T0F68 000:072.894   CPU_WriteMem(4 bytes @ 0xE000ED88)
T0F68 000:073.227   CoreSight components:
T0F68 000:073.250   ROMTbl[0] @ E00FF000
T0F68 000:073.264   CPU_ReadMem(64 bytes @ 0xE00FF000)
T0F68 000:073.946   CPU_ReadMem(32 bytes @ 0xE000EFE0)
T0F68 000:074.410   [0][0]: E000E000 CID B105E00D PID 000BB00C SCS-M7
T0F68 000:074.428   CPU_ReadMem(32 bytes @ 0xE0001FE0)
T0F68 000:074.924   [0][1]: E0001000 CID B105E00D PID 003BB002 DWT
T0F68 000:074.942   CPU_ReadMem(32 bytes @ 0xE0002FE0)
T0F68 000:075.418   [0][2]: E0002000 CID B105E00D PID 002BB003 FPB
T0F68 000:075.437   CPU_ReadMem(32 bytes @ 0xE0000FE0)
T0F68 000:075.926   [0][3]: E0000000 CID B105E00D PID 003BB001 ITM
T0F68 000:075.944   CPU_ReadMem(32 bytes @ 0xE0040FE0)
T0F68 000:076.410   [0][4]: E0040000 CID B105900D PID 000BB9A1 TPIU
T0F68 000:076.429   CPU_ReadMem(32 bytes @ 0xE0041FE0)
T0F68 000:076.926   [0][5]: E0041000 CID B105900D PID 000BB925 ETM
T0F68 000:077.181 - 19.556ms returns 0x2BA01477
T0F68 000:077.206 JLINK_GetDLLVersion()
T0F68 000:077.215 - 0.008ms returns 79403
T0F68 000:077.227 JLINK_CORE_GetFound()
T0F68 000:077.235 - 0.008ms returns 0xE0000FF
T0F68 000:077.247 JLINK_GetDebugInfo(0x100 = JLINKARM_ROM_TABLE_ADDR_INDEX)
T0F68 000:077.256   Value=0xE00FF000
T0F68 000:077.267 - 0.020ms returns 0
T0F68 000:077.337 JLINK_GetDebugInfo(0x100 = JLINKARM_ROM_TABLE_ADDR_INDEX)
T0F68 000:077.352   Value=0xE00FF000
T0F68 000:077.364 - 0.027ms returns 0
T0F68 000:077.374 JLINK_GetDebugInfo(0x101 = JLINKARM_DEBUG_INFO_ETM_ADDR_INDEX)
T0F68 000:077.383   Value=0xE0041000
T0F68 000:077.394 - 0.019ms returns 0
T0F68 000:077.409 JLINK_ReadMemEx(0xE0041FD0, 0x20 Bytes, Flags = 0x02000004)
T0F68 000:077.431   CPU_ReadMem(32 bytes @ 0xE0041FD0)
T0F68 000:077.919   Data:  04 00 00 00 00 00 00 00 00 00 00 00 00 00 00 00 ...
T0F68 000:077.937 - 0.528ms returns 32 (0x20)
T0F68 000:077.950 JLINK_GetDebugInfo(0x102 = JLINKARM_DEBUG_INFO_MTB_ADDR_INDEX)
T0F68 000:077.959   Value=0x00000000
T0F68 000:077.970 - 0.020ms returns 0
T0F68 000:077.980 JLINK_GetDebugInfo(0x103 = JLINKARM_DEBUG_INFO_TPIU_ADDR_INDEX)
T0F68 000:077.988   Value=0xE0040000
T0F68 000:077.999 - 0.019ms returns 0
T0F68 000:078.009 JLINK_GetDebugInfo(0x104 = JLINKARM_DEBUG_INFO_ITM_ADDR_INDEX)
T0F68 000:078.017   Value=0xE0000000
T0F68 000:078.028 - 0.019ms returns 0
T0F68 000:078.048 JLINK_GetDebugInfo(0x105 = JLINKARM_DEBUG_INFO_DWT_ADDR_INDEX)
T0F68 000:078.055   Value=0xE0001000
T0F68 000:078.067 - 0.019ms returns 0
T0F68 000:078.076 JLINK_GetDebugInfo(0x106 = JLINKARM_DEBUG_INFO_FPB_ADDR_INDEX)
T0F68 000:078.084   Value=0xE0002000
T0F68 000:078.095 - 0.019ms returns 0
T0F68 000:078.105 JLINK_GetDebugInfo(0x107 = JLINKARM_DEBUG_INFO_NVIC_ADDR_INDEX)
T0F68 000:078.113   Value=0xE000E000
T0F68 000:078.124 - 0.019ms returns 0
T0F68 000:078.134 JLINK_GetDebugInfo(0x10C = JLINKARM_DEBUG_INFO_DBG_ADDR_INDEX)
T0F68 000:078.142   Value=0xE000EDF0
T0F68 000:078.153 - 0.019ms returns 0
T0F68 000:078.165 JLINK_GetDebugInfo(0x01 = Unknown)
T0F68 000:078.173   Value=0x00000001
T0F68 000:078.185 - 0.022ms returns 0
T0F68 000:078.195 JLINK_ReadMemU32(0xE000ED00, 0x1 Items)
T0F68 000:078.208   CPU_ReadMem(4 bytes @ 0xE000ED00)
T0F68 000:078.534   Data:  41 C2 0F 41
T0F68 000:078.552   Debug reg: CPUID
T0F68 000:078.569 - 0.373ms returns 1 (0x1)
T0F68 000:078.582 JLINK_GetDebugInfo(0x10F = JLINKARM_DEBUG_INFO_HAS_CORTEX_M_SECURITY_EXT_INDEX)
T0F68 000:078.590   Value=0x00000000
T0F68 000:078.601 - 0.020ms returns 0
T0F68 000:078.612 JLINK_HasError()
T0F68 000:078.622 JLINK_SetResetType(JLINKARM_CM3_RESET_TYPE_NORMAL)
T0F68 000:078.631 - 0.008ms returns JLINKARM_CM3_RESET_TYPE_NORMAL
T0F68 000:078.641 JLINK_Reset()
T0F68 000:078.661   CPU is running
T0F68 000:078.674   CPU_WriteMem(4 bytes @ 0xE000EDF0)
T0F68 000:078.986   CPU is running
T0F68 000:079.005   CPU_WriteMem(4 bytes @ 0xE000EDFC)
T0F68 000:079.332   Reset: Halt core after reset via DEMCR.VC_CORERESET.
T0F68 000:079.712   Reset: Reset device via AIRCR.SYSRESETREQ.
T0F68 000:079.742   CPU is running
T0F68 000:079.756   CPU_WriteMem(4 bytes @ 0xE000ED0C)
T0F68 000:133.281   CPU_ReadMem(4 bytes @ 0xE000EDF0)
T0F68 000:133.615   CPU_ReadMem(4 bytes @ 0xE000EDF0)
T0F68 000:136.510   CPU_WriteMem(4 bytes @ 0xE000EDFC)
T0F68 000:142.396   CPU_ReadMem(4 bytes @ 0xE000EDF0)
T0F68 000:145.300   CPU_WriteMem(4 bytes @ 0xE0002000)
T0F68 000:145.624   CPU_ReadMem(4 bytes @ 0xE000EDFC)
T0F68 000:145.947   CPU_ReadMem(4 bytes @ 0xE0001000)
T0F68 000:146.264 - 67.623ms
T0F68 000:146.297 JLINK_HasError()
T0F68 000:146.376 JLINK_ReadReg(R15 (PC))
T0F68 000:146.397 - 0.025ms returns 0x08000330
T0F68 000:146.408 JLINK_ReadReg(XPSR)
T0F68 000:146.417 - 0.009ms returns 0x01000000
T0F68 000:146.428 JLINK_Halt()
T0F68 000:146.436 - 0.008ms returns 0x00
T0F68 000:146.449 JLINK_ReadMemU32(0xE000EDF0, 0x1 Items)
T0F68 000:146.465   CPU_ReadMem(4 bytes @ 0xE000EDF0)
T0F68 000:146.767   Data:  03 00 03 00
T0F68 000:146.786   Debug reg: DHCSR
T0F68 000:146.799 - 0.349ms returns 1 (0x1)
T0F68 000:146.817 JLINK_WriteU32_64(0xE000EDF0, 0xA05F0003)
T0F68 000:146.825   Debug reg: DHCSR
T0F68 000:147.116   CPU_WriteMem(4 bytes @ 0xE000EDF0)
T0F68 000:147.446 - 0.629ms returns 0 (0x00000000)
T0F68 000:147.468 JLINK_WriteU32_64(0xE000EDFC, 0x01000000)
T0F68 000:147.480   Debug reg: DEMCR
T0F68 000:147.503   CPU_WriteMem(4 bytes @ 0xE000EDFC)
T0F68 000:147.910 - 0.442ms returns 0 (0x00000000)
T0F68 000:147.987 JLINK_GetHWStatus(...)
T0F68 000:148.152 - 0.165ms returns 0
T0F68 000:148.198 JLINK_GetNumBPUnits(Type = 0xFFFFFF00)
T0F68 000:148.208 - 0.010ms returns 0x06
T0F68 000:148.218 JLINK_GetNumBPUnits(Type = 0xF0)
T0F68 000:148.226 - 0.008ms returns 0x2000
T0F68 000:148.236 JLINK_GetNumWPUnits()
T0F68 000:148.244 - 0.008ms returns 4
T0F68 000:148.267 JLINK_GetSpeed()
T0F68 000:148.275 - 0.008ms returns 4000
T0F68 000:148.293 JLINK_ReadMemU32(0xE000E004, 0x1 Items)
T0F68 000:148.308   CPU_ReadMem(4 bytes @ 0xE000E004)
T0F68 000:148.605   Data:  02 00 00 00
T0F68 000:148.631 - 0.337ms returns 1 (0x1)
T0F68 000:148.648 JLINK_ReadMemU32(0xE000E004, 0x1 Items)
T0F68 000:148.666   CPU_ReadMem(4 bytes @ 0xE000E004)
T0F68 000:148.981   Data:  02 00 00 00
T0F68 000:149.004 - 0.356ms returns 1 (0x1)
T0F68 000:149.021 JLINK_WriteMemEx(0xE0001000, 0x0000001C Bytes, Flags = 0x02000004)
T0F68 000:149.033   Data:  01 00 00 00 00 00 00 00 00 00 00 00 00 00 00 00 ...
T0F68 000:149.060   CPU_WriteMem(28 bytes @ 0xE0001000)
T0F68 000:149.523 - 0.502ms returns 0x1C
T0F68 000:149.555 JLINK_HasError()
T0F68 000:149.574 JLINK_ReadReg(R15 (PC))
T0F68 000:149.592 - 0.017ms returns 0x08000330
T0F68 000:149.609 JLINK_ReadReg(XPSR)
T0F68 000:149.629 - 0.020ms returns 0x01000000
T0F68 000:156.303 JLINK_ReadMemEx(0xE0001004, 0x4 Bytes, Flags = 0x02000000)
T0F68 000:156.343   Data:  00 00 00 00
T0F68 000:156.356   Debug reg: DWT_CYCCNT
T0F68 000:156.368 - 0.065ms returns 4 (0x4)
T0F68 000:506.211 JLINK_HasError()
T0F68 000:506.249 JLINK_SetResetType(JLINKARM_CM3_RESET_TYPE_NORMAL)
T0F68 000:506.265 - 0.015ms returns JLINKARM_CM3_RESET_TYPE_NORMAL
T0F68 000:506.278 JLINK_Reset()
T0F68 000:506.300   CPU_WriteMem(4 bytes @ 0xE000EDF0)
T0F68 000:506.656   CPU_WriteMem(4 bytes @ 0xE000EDFC)
T0F68 000:507.009   Reset: Halt core after reset via DEMCR.VC_CORERESET.
T0F68 000:507.442   Reset: Reset device via AIRCR.SYSRESETREQ.
T0F68 000:507.475   CPU_WriteMem(4 bytes @ 0xE000ED0C)
T0F68 000:561.181   CPU_ReadMem(4 bytes @ 0xE000EDF0)
T0F68 000:561.497   CPU_ReadMem(4 bytes @ 0xE000EDF0)
T0F68 000:561.809   CPU_WriteMem(4 bytes @ 0xE000EDFC)
T0F68 000:567.973   CPU_ReadMem(4 bytes @ 0xE000EDF0)
T0F68 000:570.840   CPU_WriteMem(4 bytes @ 0xE0002000)
T0F68 000:571.167   CPU_ReadMem(4 bytes @ 0xE000EDFC)
T0F68 000:571.489   CPU_ReadMem(4 bytes @ 0xE0001000)
T0F68 000:571.804 - 65.524ms
T0F68 000:571.884 JLINK_HasError()
T0F68 000:571.897 JLINK_ReadReg(R15 (PC))
T0F68 000:571.910 - 0.012ms returns 0x08000330
T0F68 000:571.920 JLINK_ReadReg(XPSR)
T0F68 000:571.929 - 0.009ms returns 0x01000000
T0F68 000:579.168 JLINK_ReadMemEx(0x08000330, 0x3C Bytes, Flags = 0x02000000)
T0F68 000:579.191   CPU_ReadMem(128 bytes @ 0x08000300)
T0F68 000:580.192    -- Updating C cache (128 bytes @ 0x08000300)
T0F68 000:580.211    -- Read from C cache (60 bytes @ 0x08000330)
T0F68 000:580.224   Data:  09 48 80 47 09 48 00 47 FE E7 FE E7 FE E7 FE E7 ...
T0F68 000:580.237 - 1.068ms returns 60 (0x3C)
T0F68 000:580.249 JLINK_ReadMemEx(0x08000330, 0x2 Bytes, Flags = 0x02000000)
T0F68 000:580.259    -- Read from C cache (2 bytes @ 0x08000330)
T0F68 000:580.271   Data:  09 48
T0F68 000:580.283 - 0.033ms returns 2 (0x2)
T0F68 000:580.361 JLINK_ReadMemEx(0x08000332, 0x2 Bytes, Flags = 0x02000000)
T0F68 000:580.371    -- Read from C cache (2 bytes @ 0x08000332)
T0F68 000:580.382   Data:  80 47
T0F68 000:580.394 - 0.032ms returns 2 (0x2)
T0F68 003:094.540 JLINK_ReadMemEx(0x08000332, 0x2 Bytes, Flags = 0x02000000)
T0F68 003:094.575    -- Read from C cache (2 bytes @ 0x08000332)
T0F68 003:094.588   Data:  80 47
T0F68 003:094.602 - 0.062ms returns 2 (0x2)
T0F68 003:094.613 JLINK_ReadMemEx(0x08000334, 0x3C Bytes, Flags = 0x02000000)
T0F68 003:094.622    -- Read from C cache (60 bytes @ 0x08000334)
T0F68 003:094.635   Data:  09 48 00 47 FE E7 FE E7 FE E7 FE E7 FE E7 FE E7 ...
T0F68 003:094.646 - 0.033ms returns 60 (0x3C)
T0F68 003:094.656 JLINK_ReadMemEx(0x08000334, 0x2 Bytes, Flags = 0x02000000)
T0F68 003:094.665    -- Read from C cache (2 bytes @ 0x08000334)
T0F68 003:094.676   Data:  09 48
T0F68 003:094.688 - 0.031ms returns 2 (0x2)
T0F68 003:567.574 JLINK_HasError()
T0F68 003:567.598 JLINK_ReadReg(R0)
T0F68 003:567.933 - 0.334ms returns 0x00000000
T0F68 003:567.952 JLINK_ReadReg(R1)
T0F68 003:567.962 - 0.009ms returns 0x00000000
T0F68 003:567.972 JLINK_ReadReg(R2)
T0F68 003:567.980 - 0.008ms returns 0x00000000
T0F68 003:567.990 JLINK_ReadReg(R3)
T0F68 003:567.998 - 0.008ms returns 0x00000000
T0F68 003:568.008 JLINK_ReadReg(R4)
T0F68 003:568.017 - 0.008ms returns 0x00000000
T0F68 003:568.026 JLINK_ReadReg(R5)
T0F68 003:568.035 - 0.008ms returns 0x00000000
T0F68 003:568.044 JLINK_ReadReg(R6)
T0F68 003:568.053 - 0.008ms returns 0x00000000
T0F68 003:568.062 JLINK_ReadReg(R7)
T0F68 003:568.071 - 0.008ms returns 0x00000000
T0F68 003:568.084 JLINK_ReadReg(R8)
T0F68 003:568.093 - 0.012ms returns 0x00000000
T0F68 003:568.103 JLINK_ReadReg(R9)
T0F68 003:568.111 - 0.008ms returns 0x00000000
T0F68 003:568.121 JLINK_ReadReg(R10)
T0F68 003:568.129 - 0.008ms returns 0x00000000
T0F68 003:568.139 JLINK_ReadReg(R11)
T0F68 003:568.147 - 0.008ms returns 0x00000000
T0F68 003:568.157 JLINK_ReadReg(R12)
T0F68 003:568.165 - 0.008ms returns 0x00000000
T0F68 003:568.175 JLINK_ReadReg(R13 (SP))
T0F68 003:568.184 - 0.008ms returns 0x2000D958
T0F68 003:568.194 JLINK_ReadReg(R14)
T0F68 003:568.202 - 0.008ms returns 0xFFFFFFFF
T0F68 003:568.212 JLINK_ReadReg(R15 (PC))
T0F68 003:568.220 - 0.008ms returns 0x08000330
T0F68 003:568.230 JLINK_ReadReg(XPSR)
T0F68 003:568.238 - 0.008ms returns 0x01000000
T0F68 003:568.248 JLINK_ReadReg(MSP)
T0F68 003:568.256 - 0.008ms returns 0x2000D958
T0F68 003:568.266 JLINK_ReadReg(PSP)
T0F68 003:568.274 - 0.008ms returns 0x00000000
T0F68 003:568.285 JLINK_ReadReg(CFBP)
T0F68 003:568.293 - 0.009ms returns 0x00000000
T0F68 003:568.357 JLINK_ReadReg(FPSCR)
T0F68 003:572.317 - 3.958ms returns 0x00000000
T0F68 003:572.336 JLINK_ReadReg(FPS0)
T0F68 003:572.347 - 0.011ms returns 0x00000000
T0F68 003:572.357 JLINK_ReadReg(FPS1)
T0F68 003:572.366 - 0.008ms returns 0x00000000
T0F68 003:572.376 JLINK_ReadReg(FPS2)
T0F68 003:572.384 - 0.008ms returns 0x00000000
T0F68 003:572.394 JLINK_ReadReg(FPS3)
T0F68 003:572.403 - 0.008ms returns 0x00000000
T0F68 003:572.413 JLINK_ReadReg(FPS4)
T0F68 003:572.421 - 0.008ms returns 0x00000000
T0F68 003:572.430 JLINK_ReadReg(FPS5)
T0F68 003:572.439 - 0.008ms returns 0x00000000
T0F68 003:572.449 JLINK_ReadReg(FPS6)
T0F68 003:572.457 - 0.008ms returns 0x00000000
T0F68 003:572.467 JLINK_ReadReg(FPS7)
T0F68 003:572.475 - 0.008ms returns 0x00000000
T0F68 003:572.485 JLINK_ReadReg(FPS8)
T0F68 003:572.493 - 0.008ms returns 0x00000000
T0F68 003:572.503 JLINK_ReadReg(FPS9)
T0F68 003:572.511 - 0.008ms returns 0x00000000
T0F68 003:572.521 JLINK_ReadReg(FPS10)
T0F68 003:572.529 - 0.008ms returns 0x00000000
T0F68 003:572.539 JLINK_ReadReg(FPS11)
T0F68 003:572.547 - 0.008ms returns 0x00000000
T0F68 003:572.556 JLINK_ReadReg(FPS12)
T0F68 003:572.565 - 0.008ms returns 0x00000000
T0F68 003:572.574 JLINK_ReadReg(FPS13)
T0F68 003:572.583 - 0.008ms returns 0x00000000
T0F68 003:572.593 JLINK_ReadReg(FPS14)
T0F68 003:572.601 - 0.008ms returns 0x00000000
T0F68 003:572.611 JLINK_ReadReg(FPS15)
T0F68 003:572.619 - 0.008ms returns 0x00000000
T0F68 003:572.628 JLINK_ReadReg(FPS16)
T0F68 003:572.637 - 0.008ms returns 0x00000000
T0F68 003:572.646 JLINK_ReadReg(FPS17)
T0F68 003:572.655 - 0.008ms returns 0x00000000
T0F68 003:572.664 JLINK_ReadReg(FPS18)
T0F68 003:572.673 - 0.008ms returns 0x00000000
T0F68 003:572.682 JLINK_ReadReg(FPS19)
T0F68 003:572.690 - 0.008ms returns 0x00000000
T0F68 003:572.700 JLINK_ReadReg(FPS20)
T0F68 003:572.708 - 0.008ms returns 0x00000000
T0F68 003:572.718 JLINK_ReadReg(FPS21)
T0F68 003:572.726 - 0.008ms returns 0x00000000
T0F68 003:572.736 JLINK_ReadReg(FPS22)
T0F68 003:572.744 - 0.008ms returns 0x00000000
T0F68 003:572.754 JLINK_ReadReg(FPS23)
T0F68 003:572.762 - 0.008ms returns 0x00000000
T0F68 003:572.772 JLINK_ReadReg(FPS24)
T0F68 003:572.780 - 0.008ms returns 0x00000000
T0F68 003:572.790 JLINK_ReadReg(FPS25)
T0F68 003:572.798 - 0.008ms returns 0x00000000
T0F68 003:572.807 JLINK_ReadReg(FPS26)
T0F68 003:572.816 - 0.008ms returns 0x00000000
T0F68 003:572.826 JLINK_ReadReg(FPS27)
T0F68 003:572.834 - 0.008ms returns 0x00000000
T0F68 003:572.844 JLINK_ReadReg(FPS28)
T0F68 003:572.852 - 0.008ms returns 0x00000000
T0F68 003:572.861 JLINK_ReadReg(FPS29)
T0F68 003:572.870 - 0.008ms returns 0x00000000
T0F68 003:572.879 JLINK_ReadReg(FPS30)
T0F68 003:572.888 - 0.008ms returns 0x00000000
T0F68 003:572.897 JLINK_ReadReg(FPS31)
T0F68 003:572.906 - 0.008ms returns 0x00000000
T0F68 003:664.975 JLINK_ReadMemEx(0x20000210, 0x4 Bytes, Flags = 0x02000000)
T0F68 003:665.015   CPU_ReadMem(64 bytes @ 0x20000200)
T0F68 003:665.715    -- Updating C cache (64 bytes @ 0x20000200)
T0F68 003:665.735    -- Read from C cache (4 bytes @ 0x20000210)
T0F68 003:665.748   Data:  FF FF FF FF
T0F68 003:665.760 - 0.785ms returns 4 (0x4)
T0F68 003:666.180 JLINK_ReadMemEx(0x20000210, 0x4 Bytes, Flags = 0x02000000)
T0F68 003:666.194    -- Read from C cache (4 bytes @ 0x20000210)
T0F68 003:666.206   Data:  FF FF FF FF
T0F68 003:666.218 - 0.038ms returns 4 (0x4)
T0F68 003:666.247 JLINK_ReadMemEx(0x20000210, 0x4 Bytes, Flags = 0x02000000)
T0F68 003:666.257    -- Read from C cache (4 bytes @ 0x20000210)
T0F68 003:666.269   Data:  FF FF FF FF
T0F68 003:666.280 - 0.033ms returns 4 (0x4)
T0F68 003:667.866 JLINK_ReadMemEx(0x200002C0, 0x1 Bytes, Flags = 0x02000000)
T0F68 003:667.887   CPU_ReadMem(64 bytes @ 0x200002C0)
T0F68 003:668.537    -- Updating C cache (64 bytes @ 0x200002C0)
T0F68 003:668.555    -- Read from C cache (1 bytes @ 0x200002C0)
T0F68 003:668.567   Data:  FF
T0F68 003:668.579 - 0.713ms returns 1 (0x1)
T0F68 003:668.857 JLINK_ReadMemEx(0x200002C0, 0x1 Bytes, Flags = 0x02000000)
T0F68 003:668.874    -- Read from C cache (1 bytes @ 0x200002C0)
T0F68 003:668.888   Data:  FF
T0F68 003:668.900 - 0.043ms returns 1 (0x1)
T0F68 003:668.924 JLINK_ReadMemEx(0x200002C0, 0x1 Bytes, Flags = 0x02000000)
T0F68 003:668.934    -- Read from C cache (1 bytes @ 0x200002C0)
T0F68 003:668.945   Data:  FF
T0F68 003:668.957 - 0.033ms returns 1 (0x1)
T0F68 003:670.528 JLINK_ReadMemEx(0x200002C4, 0x4 Bytes, Flags = 0x02000000)
T0F68 003:670.545    -- Read from C cache (4 bytes @ 0x200002C4)
T0F68 003:670.557   Data:  FF FF FF FF
T0F68 003:670.569 - 0.042ms returns 4 (0x4)
T0F68 003:670.860 JLINK_ReadMemEx(0x200002C4, 0x4 Bytes, Flags = 0x02000000)
T0F68 003:670.872    -- Read from C cache (4 bytes @ 0x200002C4)
T0F68 003:670.884   Data:  FF FF FF FF
T0F68 003:670.895 - 0.035ms returns 4 (0x4)
T0F68 003:670.918 JLINK_ReadMemEx(0x200002C4, 0x4 Bytes, Flags = 0x02000000)
T0F68 003:670.928    -- Read from C cache (4 bytes @ 0x200002C4)
T0F68 003:670.940   Data:  FF FF FF FF
T0F68 003:670.951 - 0.032ms returns 4 (0x4)
T0F68 003:674.217 JLINK_ReadMemEx(0x200001D8, 0x4 Bytes, Flags = 0x02000000)
T0F68 003:674.242   CPU_ReadMem(64 bytes @ 0x200001C0)
T0F68 003:674.894    -- Updating C cache (64 bytes @ 0x200001C0)
T0F68 003:674.950    -- Read from C cache (4 bytes @ 0x200001D8)
T0F68 003:674.981   Data:  0F 16 08 10
T0F68 003:675.002 - 0.785ms returns 4 (0x4)
T0F68 003:675.416 JLINK_ReadMemEx(0x200001D8, 0x4 Bytes, Flags = 0x02000000)
T0F68 003:675.476    -- Read from C cache (4 bytes @ 0x200001D8)
T0F68 003:675.490   Data:  0F 16 08 10
T0F68 003:675.502 - 0.086ms returns 4 (0x4)
T0F68 003:675.532 JLINK_ReadMemEx(0x200001D8, 0x4 Bytes, Flags = 0x02000000)
T0F68 003:675.542    -- Read from C cache (4 bytes @ 0x200001D8)
T0F68 003:675.554   Data:  0F 16 08 10
T0F68 003:675.566 - 0.034ms returns 4 (0x4)
T0F68 003:677.868 JLINK_ReadMemEx(0x200001D4, 0x4 Bytes, Flags = 0x02000000)
T0F68 003:677.895    -- Read from C cache (4 bytes @ 0x200001D4)
T0F68 003:677.908   Data:  06 58 04 07
T0F68 003:677.920 - 0.052ms returns 4 (0x4)
T0F68 003:678.171 JLINK_ReadMemEx(0x200001D4, 0x4 Bytes, Flags = 0x02000000)
T0F68 003:678.186    -- Read from C cache (4 bytes @ 0x200001D4)
T0F68 003:678.205   Data:  06 58 04 07
T0F68 003:678.219 - 0.047ms returns 4 (0x4)
T0F68 003:678.252 JLINK_ReadMemEx(0x200001D4, 0x4 Bytes, Flags = 0x02000000)
T0F68 003:678.263    -- Read from C cache (4 bytes @ 0x200001D4)
T0F68 003:678.275   Data:  06 58 04 07
T0F68 003:678.287 - 0.034ms returns 4 (0x4)
T0F68 003:679.822 JLINK_ReadMemEx(0x20000200, 0x4 Bytes, Flags = 0x02000000)
T0F68 003:679.846    -- Read from C cache (4 bytes @ 0x20000200)
T0F68 003:679.863   Data:  42 1C 01 44
T0F68 003:679.880 - 0.058ms returns 4 (0x4)
T0F68 003:680.156 JLINK_ReadMemEx(0x20000200, 0x4 Bytes, Flags = 0x02000000)
T0F68 003:680.168    -- Read from C cache (4 bytes @ 0x20000200)
T0F68 003:680.180   Data:  42 1C 01 44
T0F68 003:680.191 - 0.035ms returns 4 (0x4)
T0F68 003:680.214 JLINK_ReadMemEx(0x20000200, 0x4 Bytes, Flags = 0x02000000)
T0F68 003:680.224    -- Read from C cache (4 bytes @ 0x20000200)
T0F68 003:680.235   Data:  42 1C 01 44
T0F68 003:680.247 - 0.033ms returns 4 (0x4)
T0F68 003:701.971 JLINK_ReadMemEx(0x200001A0, 0x4 Bytes, Flags = 0x02000000)
T0F68 003:702.013   CPU_ReadMem(64 bytes @ 0x20000180)
T0F68 003:702.692    -- Updating C cache (64 bytes @ 0x20000180)
T0F68 003:702.710    -- Read from C cache (4 bytes @ 0x200001A0)
T0F68 003:702.723   Data:  25 CD CC 4C
T0F68 003:702.736 - 0.765ms returns 4 (0x4)
T0F68 003:702.990 JLINK_ReadMemEx(0x200001A0, 0x4 Bytes, Flags = 0x02000000)
T0F68 003:703.004    -- Read from C cache (4 bytes @ 0x200001A0)
T0F68 003:703.016   Data:  25 CD CC 4C
T0F68 003:703.027 - 0.037ms returns 4 (0x4)
T0F68 003:703.053 JLINK_ReadMemEx(0x200001A0, 0x4 Bytes, Flags = 0x02000000)
T0F68 003:703.063    -- Read from C cache (4 bytes @ 0x200001A0)
T0F68 003:703.075   Data:  25 CD CC 4C
T0F68 003:703.086 - 0.033ms returns 4 (0x4)
T0F68 003:731.114 JLINK_ReadMemEx(0x20000228, 0x4 Bytes, Flags = 0x02000000)
T0F68 003:731.157    -- Read from C cache (4 bytes @ 0x20000228)
T0F68 003:731.171   Data:  FF FF FF FF
T0F68 003:731.183 - 0.069ms returns 4 (0x4)
T0F68 003:731.513 JLINK_ReadMemEx(0x20000228, 0x4 Bytes, Flags = 0x02000000)
T0F68 003:731.526    -- Read from C cache (4 bytes @ 0x20000228)
T0F68 003:731.538   Data:  FF FF FF FF
T0F68 003:731.551 - 0.037ms returns 4 (0x4)
T0F68 003:731.582 JLINK_ReadMemEx(0x20000228, 0x4 Bytes, Flags = 0x02000000)
T0F68 003:731.592    -- Read from C cache (4 bytes @ 0x20000228)
T0F68 003:731.604   Data:  FF FF FF FF
T0F68 003:731.615 - 0.033ms returns 4 (0x4)
T0F68 003:739.398 JLINK_ReadMemEx(0x2000018A, 0x2 Bytes, Flags = 0x02000000)
T0F68 003:739.424    -- Read from C cache (2 bytes @ 0x2000018A)
T0F68 003:739.437   Data:  12 4D
T0F68 003:739.450 - 0.052ms returns 2 (0x2)
T0F68 003:739.740 JLINK_ReadMemEx(0x2000018A, 0x2 Bytes, Flags = 0x02000000)
T0F68 003:739.752    -- Read from C cache (2 bytes @ 0x2000018A)
T0F68 003:739.764   Data:  12 4D
T0F68 003:739.776 - 0.035ms returns 2 (0x2)
T0F68 003:739.801 JLINK_ReadMemEx(0x2000018A, 0x2 Bytes, Flags = 0x02000000)
T0F68 003:739.811    -- Read from C cache (2 bytes @ 0x2000018A)
T0F68 003:739.823   Data:  12 4D
T0F68 003:739.835 - 0.033ms returns 2 (0x2)
T0F68 003:747.676 JLINK_ReadMemEx(0x2000018C, 0x2 Bytes, Flags = 0x02000000)
T0F68 003:747.697    -- Read from C cache (2 bytes @ 0x2000018C)
T0F68 003:747.709   Data:  0F 0B
T0F68 003:747.722 - 0.047ms returns 2 (0x2)
T0F68 003:747.981 JLINK_ReadMemEx(0x2000018C, 0x2 Bytes, Flags = 0x02000000)
T0F68 003:747.993    -- Read from C cache (2 bytes @ 0x2000018C)
T0F68 003:748.005   Data:  0F 0B
T0F68 003:748.016 - 0.035ms returns 2 (0x2)
T0F68 003:748.040 JLINK_ReadMemEx(0x2000018C, 0x2 Bytes, Flags = 0x02000000)
T0F68 003:748.049    -- Read from C cache (2 bytes @ 0x2000018C)
T0F68 003:748.061   Data:  0F 0B
T0F68 003:748.073 - 0.033ms returns 2 (0x2)
T5710 003:840.180 JLINK_ReadMemEx(0x08000330, 0x2 Bytes, Flags = 0x02000000)
T5710 003:840.218    -- Read from C cache (2 bytes @ 0x08000330)
T5710 003:840.231   Data:  09 48
T5710 003:840.244 - 0.064ms returns 2 (0x2)
T5710 003:840.255 JLINK_HasError()
T5710 003:840.270 JLINK_SetBPEx(Addr = 0x080137F8, Type = 0xFFFFFFF2)
T5710 003:840.285 - 0.015ms returns 0x00000001
T5710 003:840.295 JLINK_HasError()
T5710 003:840.305 JLINK_SetBPEx(Addr = 0x08013840, Type = 0xFFFFFFF2)
T5710 003:840.314 - 0.009ms returns 0x00000002
T5710 003:840.324 JLINK_HasError()
T5710 003:840.334 JLINK_SetBPEx(Addr = 0x0801382E, Type = 0xFFFFFFF2)
T5710 003:840.342 - 0.008ms returns 0x00000003
T5710 003:840.352 JLINK_HasError()
T5710 003:840.362 JLINK_HasError()
T5710 003:840.373 JLINK_Go()
T5710 003:840.390   CPU_WriteMem(4 bytes @ 0xE0002000)
T5710 003:840.824   CPU_WriteMem(4 bytes @ 0xE0002000)
T5710 003:841.168   CPU_WriteMem(4 bytes @ 0xE0002000)
T5710 003:841.505   CPU_ReadMem(4 bytes @ 0xE0001000)
T5710 003:841.830   CPU_WriteMem(4 bytes @ 0xE0002008)
T5710 003:841.850   CPU_WriteMem(4 bytes @ 0xE000200C)
T5710 003:841.862   CPU_WriteMem(4 bytes @ 0xE0002010)
T5710 003:841.874   CPU_WriteMem(4 bytes @ 0xE0002014)
T5710 003:841.886   CPU_WriteMem(4 bytes @ 0xE0002018)
T5710 003:841.898   CPU_WriteMem(4 bytes @ 0xE000201C)
T5710 003:843.194   CPU_WriteMem(4 bytes @ 0xE0001004)
T5710 003:846.184   Memory map 'after startup completion point' is active
T5710 003:846.208 - 5.834ms
T5710 003:946.281 JLINK_HasError()
T5710 003:946.308 JLINK_IsHalted()
T5710 003:948.855 - 2.546ms returns TRUE
T5710 003:948.876 JLINK_HasError()
T5710 003:948.887 JLINK_Halt()
T5710 003:948.896 - 0.008ms returns 0x00
T5710 003:948.906 JLINK_IsHalted()
T5710 003:948.914 - 0.008ms returns TRUE
T5710 003:948.924 JLINK_IsHalted()
T5710 003:948.932 - 0.008ms returns TRUE
T5710 003:948.942 JLINK_IsHalted()
T5710 003:948.950 - 0.007ms returns TRUE
T5710 003:948.960 JLINK_HasError()
T5710 003:948.971 JLINK_ReadReg(R15 (PC))
T5710 003:948.983 - 0.011ms returns 0x080137F8
T5710 003:948.996 JLINK_ReadReg(XPSR)
T5710 003:949.008 - 0.011ms returns 0x21000000
T5710 003:949.021 JLINK_HasError()
T5710 003:949.031 JLINK_ClrBPEx(BPHandle = 0x00000001)
T5710 003:949.040 - 0.009ms returns 0x00
T5710 003:949.051 JLINK_HasError()
T5710 003:949.060 JLINK_ClrBPEx(BPHandle = 0x00000002)
T5710 003:949.069 - 0.008ms returns 0x00
T5710 003:949.078 JLINK_HasError()
T5710 003:949.088 JLINK_ClrBPEx(BPHandle = 0x00000003)
T5710 003:949.096 - 0.008ms returns 0x00
T5710 003:949.106 JLINK_HasError()
T5710 003:949.116 JLINK_HasError()
T5710 003:949.126 JLINK_ReadMemU32(0xE000ED30, 0x1 Items)
T5710 003:949.141   CPU_ReadMem(4 bytes @ 0xE000ED30)
T5710 003:949.455   Data:  02 00 00 00
T5710 003:949.474 - 0.347ms returns 1 (0x1)
T5710 003:949.487 JLINK_ReadMemU32(0xE0001028, 0x1 Items)
T5710 003:949.501   CPU_ReadMem(4 bytes @ 0xE0001028)
T5710 003:949.808   Data:  00 00 00 00
T5710 003:949.827   Debug reg: DWT_FUNC[0]
T5710 003:949.839 - 0.352ms returns 1 (0x1)
T5710 003:949.852 JLINK_ReadMemU32(0xE0001038, 0x1 Items)
T5710 003:949.865   CPU_ReadMem(4 bytes @ 0xE0001038)
T5710 003:950.215   Data:  00 02 00 00
T5710 003:950.233   Debug reg: DWT_FUNC[1]
T5710 003:950.245 - 0.393ms returns 1 (0x1)
T5710 003:950.257 JLINK_ReadMemU32(0xE0001048, 0x1 Items)
T5710 003:950.270   CPU_ReadMem(4 bytes @ 0xE0001048)
T5710 003:950.580   Data:  00 00 00 00
T5710 003:950.599   Debug reg: DWT_FUNC[2]
T5710 003:950.611 - 0.353ms returns 1 (0x1)
T5710 003:950.623 JLINK_ReadMemU32(0xE0001058, 0x1 Items)
T5710 003:950.636   CPU_ReadMem(4 bytes @ 0xE0001058)
T5710 003:951.023   Data:  00 00 00 00
T5710 003:951.041   Debug reg: DWT_FUNC[3]
T5710 003:951.053 - 0.429ms returns 1 (0x1)
T5710 003:951.105 JLINK_HasError()
T5710 003:951.117 JLINK_ReadReg(R0)
T5710 003:951.129 - 0.011ms returns 0x20009958
T5710 003:951.139 JLINK_ReadReg(R1)
T5710 003:951.148 - 0.009ms returns 0x2000B958
T5710 003:951.158 JLINK_ReadReg(R2)
T5710 003:951.167 - 0.008ms returns 0x2000B958
T5710 003:951.177 JLINK_ReadReg(R3)
T5710 003:951.185 - 0.008ms returns 0x2000B958
T5710 003:951.195 JLINK_ReadReg(R4)
T5710 003:951.203 - 0.008ms returns 0x00000000
T5710 003:951.213 JLINK_ReadReg(R5)
T5710 003:951.221 - 0.008ms returns 0x200098F8
T5710 003:951.231 JLINK_ReadReg(R6)
T5710 003:951.239 - 0.008ms returns 0x00000000
T5710 003:951.249 JLINK_ReadReg(R7)
T5710 003:951.257 - 0.008ms returns 0x00000000
T5710 003:951.267 JLINK_ReadReg(R8)
T5710 003:951.275 - 0.008ms returns 0x00000000
T5710 003:951.285 JLINK_ReadReg(R9)
T5710 003:951.293 - 0.008ms returns 0x00000000
T5710 003:951.303 JLINK_ReadReg(R10)
T5710 003:951.311 - 0.008ms returns 0x080186FC
T5710 003:951.321 JLINK_ReadReg(R11)
T5710 003:951.329 - 0.008ms returns 0x00000000
T5710 003:951.339 JLINK_ReadReg(R12)
T5710 003:951.347 - 0.008ms returns 0x20009968
T5710 003:951.357 JLINK_ReadReg(R13 (SP))
T5710 003:951.366 - 0.008ms returns 0x2000D958
T5710 003:951.376 JLINK_ReadReg(R14)
T5710 003:951.384 - 0.008ms returns 0x0800025F
T5710 003:951.403 JLINK_ReadReg(R15 (PC))
T5710 003:951.412 - 0.008ms returns 0x080137F8
T5710 003:951.422 JLINK_ReadReg(XPSR)
T5710 003:951.430 - 0.008ms returns 0x21000000
T5710 003:951.440 JLINK_ReadReg(MSP)
T5710 003:951.449 - 0.008ms returns 0x2000D958
T5710 003:951.458 JLINK_ReadReg(PSP)
T5710 003:951.467 - 0.008ms returns 0x00000000
T5710 003:951.476 JLINK_ReadReg(CFBP)
T5710 003:951.485 - 0.008ms returns 0x04000000
T5710 003:951.494 JLINK_ReadReg(FPSCR)
T5710 003:955.575 - 4.079ms returns 0x00000000
T5710 003:955.603 JLINK_ReadReg(FPS0)
T5710 003:955.615 - 0.012ms returns 0x00000000
T5710 003:955.625 JLINK_ReadReg(FPS1)
T5710 003:955.634 - 0.008ms returns 0x00000000
T5710 003:955.644 JLINK_ReadReg(FPS2)
T5710 003:955.653 - 0.008ms returns 0x00000000
T5710 003:955.662 JLINK_ReadReg(FPS3)
T5710 003:955.671 - 0.008ms returns 0x00000000
T5710 003:955.680 JLINK_ReadReg(FPS4)
T5710 003:955.689 - 0.008ms returns 0x00000000
T5710 003:955.698 JLINK_ReadReg(FPS5)
T5710 003:955.706 - 0.008ms returns 0x00000000
T5710 003:955.777 JLINK_ReadReg(FPS6)
T5710 003:955.800 - 0.022ms returns 0x00000000
T5710 003:955.820 JLINK_ReadReg(FPS7)
T5710 003:955.839 - 0.019ms returns 0x00000000
T5710 003:955.857 JLINK_ReadReg(FPS8)
T5710 003:955.869 - 0.012ms returns 0x00000000
T5710 003:955.882 JLINK_ReadReg(FPS9)
T5710 003:955.894 - 0.012ms returns 0x00000000
T5710 003:955.910 JLINK_ReadReg(FPS10)
T5710 003:955.924 - 0.014ms returns 0x00000000
T5710 003:955.940 JLINK_ReadReg(FPS11)
T5710 003:955.953 - 0.013ms returns 0x00000000
T5710 003:955.969 JLINK_ReadReg(FPS12)
T5710 003:955.983 - 0.013ms returns 0x00000000
T5710 003:955.998 JLINK_ReadReg(FPS13)
T5710 003:956.012 - 0.013ms returns 0x00000000
T5710 003:956.025 JLINK_ReadReg(FPS14)
T5710 003:956.039 - 0.013ms returns 0x00000000
T5710 003:956.054 JLINK_ReadReg(FPS15)
T5710 003:956.066 - 0.012ms returns 0x00000000
T5710 003:956.081 JLINK_ReadReg(FPS16)
T5710 003:956.096 - 0.014ms returns 0x00000000
T5710 003:956.110 JLINK_ReadReg(FPS17)
T5710 003:956.123 - 0.013ms returns 0x00000000
T5710 003:956.139 JLINK_ReadReg(FPS18)
T5710 003:956.152 - 0.012ms returns 0x00000000
T5710 003:956.166 JLINK_ReadReg(FPS19)
T5710 003:956.179 - 0.013ms returns 0x00000000
T5710 003:956.196 JLINK_ReadReg(FPS20)
T5710 003:956.215 - 0.019ms returns 0x00000000
T5710 003:956.233 JLINK_ReadReg(FPS21)
T5710 003:956.248 - 0.015ms returns 0x00000000
T5710 003:956.265 JLINK_ReadReg(FPS22)
T5710 003:956.280 - 0.014ms returns 0x00000000
T5710 003:956.299 JLINK_ReadReg(FPS23)
T5710 003:956.318 - 0.019ms returns 0x00000000
T5710 003:956.335 JLINK_ReadReg(FPS24)
T5710 003:956.351 - 0.015ms returns 0x00000000
T5710 003:956.371 JLINK_ReadReg(FPS25)
T5710 003:956.389 - 0.018ms returns 0x00000000
T5710 003:956.406 JLINK_ReadReg(FPS26)
T5710 003:956.421 - 0.015ms returns 0x00000000
T5710 003:956.441 JLINK_ReadReg(FPS27)
T5710 003:956.458 - 0.017ms returns 0x00000000
T5710 003:956.476 JLINK_ReadReg(FPS28)
T5710 003:956.518 - 0.041ms returns 0x00000000
T5710 003:956.538 JLINK_ReadReg(FPS29)
T5710 003:956.553 - 0.014ms returns 0x00000000
T5710 003:956.573 JLINK_ReadReg(FPS30)
T5710 003:956.592 - 0.018ms returns 0x00000000
T5710 003:956.608 JLINK_ReadReg(FPS31)
T5710 003:956.619 - 0.011ms returns 0x00000000
T5710 003:956.639 JLINK_ReadMemEx(0x200000A0, 0x4 Bytes, Flags = 0x02000000)
T5710 003:956.665   CPU_ReadMem(64 bytes @ 0x20000080)
T5710 003:957.312    -- Updating C cache (64 bytes @ 0x20000080)
T5710 003:957.332    -- Read from C cache (4 bytes @ 0x200000A0)
T5710 003:957.344   Data:  00 00 00 00
T5710 003:957.356 - 0.717ms returns 4 (0x4)
T0F68 003:958.093 JLINK_ReadMemEx(0x20000210, 0x4 Bytes, Flags = 0x02000000)
T0F68 003:958.116   CPU_ReadMem(64 bytes @ 0x20000200)
T0F68 003:958.757    -- Updating C cache (64 bytes @ 0x20000200)
T0F68 003:958.775    -- Read from C cache (4 bytes @ 0x20000210)
T0F68 003:958.788   Data:  00 00 00 00
T0F68 003:958.800 - 0.707ms returns 4 (0x4)
T0F68 003:958.842 JLINK_ReadMemEx(0x200002C0, 0x1 Bytes, Flags = 0x02000000)
T0F68 003:958.856   CPU_ReadMem(64 bytes @ 0x200002C0)
T0F68 003:959.486    -- Updating C cache (64 bytes @ 0x200002C0)
T0F68 003:959.506    -- Read from C cache (1 bytes @ 0x200002C0)
T0F68 003:959.519   Data:  00
T0F68 003:959.531 - 0.688ms returns 1 (0x1)
T0F68 003:959.596 JLINK_ReadMemEx(0x200002C4, 0x4 Bytes, Flags = 0x02000000)
T0F68 003:959.616    -- Read from C cache (4 bytes @ 0x200002C4)
T0F68 003:959.628   Data:  00 00 00 00
T0F68 003:959.641 - 0.044ms returns 4 (0x4)
T0F68 003:959.922 JLINK_ReadMemEx(0x200001D8, 0x4 Bytes, Flags = 0x02000000)
T0F68 003:959.947   CPU_ReadMem(64 bytes @ 0x200001C0)
T0F68 003:960.576    -- Updating C cache (64 bytes @ 0x200001C0)
T0F68 003:960.594    -- Read from C cache (4 bytes @ 0x200001D8)
T0F68 003:960.607   Data:  00 00 40 40
T0F68 003:960.619 - 0.696ms returns 4 (0x4)
T0F68 003:960.661 JLINK_ReadMemEx(0x200001D4, 0x4 Bytes, Flags = 0x02000000)
T0F68 003:960.674    -- Read from C cache (4 bytes @ 0x200001D4)
T0F68 003:960.686   Data:  00 00 00 00
T0F68 003:960.737 - 0.075ms returns 4 (0x4)
T0F68 003:960.763 JLINK_ReadMemEx(0x20000200, 0x4 Bytes, Flags = 0x02000000)
T0F68 003:960.774    -- Read from C cache (4 bytes @ 0x20000200)
T0F68 003:960.786   Data:  00 00 00 00
T0F68 003:960.797 - 0.034ms returns 4 (0x4)
T0F68 003:962.341 JLINK_ReadMemEx(0x200001A0, 0x4 Bytes, Flags = 0x02000000)
T0F68 003:962.368   CPU_ReadMem(64 bytes @ 0x20000180)
T0F68 003:963.088    -- Updating C cache (64 bytes @ 0x20000180)
T0F68 003:963.108    -- Read from C cache (4 bytes @ 0x200001A0)
T0F68 003:963.121   Data:  00 00 A0 C2
T0F68 003:963.134 - 0.793ms returns 4 (0x4)
T0F68 003:964.088 JLINK_ReadMemEx(0x20000228, 0x4 Bytes, Flags = 0x02000000)
T0F68 003:964.108    -- Read from C cache (4 bytes @ 0x20000228)
T0F68 003:964.120   Data:  66 66 E6 3F
T0F68 003:964.132 - 0.044ms returns 4 (0x4)
T0F68 003:964.477 JLINK_ReadMemEx(0x2000018A, 0x2 Bytes, Flags = 0x02000000)
T0F68 003:964.495    -- Read from C cache (2 bytes @ 0x2000018A)
T0F68 003:964.508   Data:  A8 16
T0F68 003:964.520 - 0.043ms returns 2 (0x2)
T0F68 003:964.841 JLINK_ReadMemEx(0x2000018C, 0x2 Bytes, Flags = 0x02000000)
T0F68 003:964.857    -- Read from C cache (2 bytes @ 0x2000018C)
T0F68 003:964.869   Data:  A8 16
T0F68 003:964.881 - 0.040ms returns 2 (0x2)
T5710 024:728.905 JLINK_ReadMemEx(0x080137F8, 0x2 Bytes, Flags = 0x02000000)
T5710 024:728.957   CPU_ReadMem(64 bytes @ 0x080137C0)
T5710 024:729.675    -- Updating C cache (64 bytes @ 0x080137C0)
T5710 024:729.695    -- Read from C cache (2 bytes @ 0x080137F8)
T5710 024:729.708   Data:  F2 F7
T5710 024:729.722 - 0.818ms returns 2 (0x2)
T5710 024:729.738 JLINK_HasError()
T5710 024:729.750 JLINK_SetBPEx(Addr = 0x08013840, Type = 0xFFFFFFF2)
T5710 024:729.762 - 0.012ms returns 0x00000004
T5710 024:729.772 JLINK_HasError()
T5710 024:729.782 JLINK_SetBPEx(Addr = 0x0801382E, Type = 0xFFFFFFF2)
T5710 024:729.791 - 0.009ms returns 0x00000005
T5710 024:729.801 JLINK_HasError()
T5710 024:729.811 JLINK_HasError()
T5710 024:729.821 JLINK_Go()
T5710 024:730.149   CPU_WriteMem(4 bytes @ 0xE0002000)
T5710 024:730.477   CPU_WriteMem(4 bytes @ 0xE0002000)
T5710 024:730.877   CPU_ReadMem(4 bytes @ 0xE0001000)
T5710 024:731.167   CPU_WriteMem(4 bytes @ 0xE0002008)
T5710 024:731.186   CPU_WriteMem(4 bytes @ 0xE000200C)
T5710 024:731.199   CPU_WriteMem(4 bytes @ 0xE0002010)
T5710 024:732.305 - 2.483ms
T5710 024:833.113 JLINK_HasError()
T5710 024:833.141 JLINK_IsHalted()
T5710 024:835.839 - 2.696ms returns TRUE
T5710 024:835.858 JLINK_HasError()
T5710 024:835.869 JLINK_Halt()
T5710 024:835.877 - 0.008ms returns 0x00
T5710 024:835.887 JLINK_IsHalted()
T5710 024:835.895 - 0.008ms returns TRUE
T5710 024:835.905 JLINK_IsHalted()
T5710 024:835.913 - 0.007ms returns TRUE
T5710 024:835.923 JLINK_IsHalted()
T5710 024:835.931 - 0.007ms returns TRUE
T5710 024:835.941 JLINK_HasError()
T5710 024:835.952 JLINK_ReadReg(R15 (PC))
T5710 024:835.963 - 0.011ms returns 0x0801382E
T5710 024:835.973 JLINK_ReadReg(XPSR)
T5710 024:835.982 - 0.008ms returns 0x61000000
T5710 024:835.995 JLINK_HasError()
T5710 024:836.005 JLINK_ClrBPEx(BPHandle = 0x00000004)
T5710 024:836.014 - 0.009ms returns 0x00
T5710 024:836.024 JLINK_HasError()
T5710 024:836.033 JLINK_ClrBPEx(BPHandle = 0x00000005)
T5710 024:836.042 - 0.008ms returns 0x00
T5710 024:836.052 JLINK_HasError()
T5710 024:836.061 JLINK_HasError()
T5710 024:836.072 JLINK_ReadMemU32(0xE000ED30, 0x1 Items)
T5710 024:836.086   CPU_ReadMem(4 bytes @ 0xE000ED30)
T5710 024:836.494   Data:  02 00 00 00
T5710 024:836.514 - 0.441ms returns 1 (0x1)
T5710 024:836.527 JLINK_ReadMemU32(0xE0001028, 0x1 Items)
T5710 024:836.541   CPU_ReadMem(4 bytes @ 0xE0001028)
T5710 024:836.907   Data:  00 00 00 00
T5710 024:836.926   Debug reg: DWT_FUNC[0]
T5710 024:836.938 - 0.411ms returns 1 (0x1)
T5710 024:836.951 JLINK_ReadMemU32(0xE0001038, 0x1 Items)
T5710 024:836.964   CPU_ReadMem(4 bytes @ 0xE0001038)
T5710 024:837.311   Data:  00 02 00 00
T5710 024:837.329   Debug reg: DWT_FUNC[1]
T5710 024:837.342 - 0.391ms returns 1 (0x1)
T5710 024:837.437 JLINK_ReadMemU32(0xE0001048, 0x1 Items)
T5710 024:837.452   CPU_ReadMem(4 bytes @ 0xE0001048)
T5710 024:837.789   Data:  00 00 00 00
T5710 024:837.807   Debug reg: DWT_FUNC[2]
T5710 024:837.819 - 0.382ms returns 1 (0x1)
T5710 024:837.832 JLINK_ReadMemU32(0xE0001058, 0x1 Items)
T5710 024:837.846   CPU_ReadMem(4 bytes @ 0xE0001058)
T5710 024:838.160   Data:  00 00 00 00
T5710 024:838.178   Debug reg: DWT_FUNC[3]
T5710 024:838.190 - 0.357ms returns 1 (0x1)
T5710 024:838.241 JLINK_HasError()
T5710 024:838.253 JLINK_ReadReg(R0)
T5710 024:838.264 - 0.011ms returns 0x000000A8
T5710 024:838.274 JLINK_ReadReg(R1)
T5710 024:838.283 - 0.008ms returns 0x00000000
T5710 024:838.293 JLINK_ReadReg(R2)
T5710 024:838.302 - 0.008ms returns 0x200003C4
T5710 024:838.311 JLINK_ReadReg(R3)
T5710 024:838.320 - 0.008ms returns 0x00000002
T5710 024:838.329 JLINK_ReadReg(R4)
T5710 024:838.338 - 0.008ms returns 0x00000000
T5710 024:838.347 JLINK_ReadReg(R5)
T5710 024:838.356 - 0.008ms returns 0x200098F8
T5710 024:838.365 JLINK_ReadReg(R6)
T5710 024:838.374 - 0.008ms returns 0x00000000
T5710 024:838.383 JLINK_ReadReg(R7)
T5710 024:838.392 - 0.008ms returns 0x00000000
T5710 024:838.402 JLINK_ReadReg(R8)
T5710 024:838.410 - 0.008ms returns 0x00000000
T5710 024:838.420 JLINK_ReadReg(R9)
T5710 024:838.428 - 0.008ms returns 0x00000000
T5710 024:838.438 JLINK_ReadReg(R10)
T5710 024:838.446 - 0.008ms returns 0x080186FC
T5710 024:838.456 JLINK_ReadReg(R11)
T5710 024:838.464 - 0.008ms returns 0x00000000
T5710 024:838.474 JLINK_ReadReg(R12)
T5710 024:838.482 - 0.008ms returns 0x00000000
T5710 024:838.492 JLINK_ReadReg(R13 (SP))
T5710 024:838.500 - 0.008ms returns 0x2000D958
T5710 024:838.510 JLINK_ReadReg(R14)
T5710 024:838.518 - 0.008ms returns 0x0801382F
T5710 024:838.528 JLINK_ReadReg(R15 (PC))
T5710 024:838.536 - 0.008ms returns 0x0801382E
T5710 024:838.546 JLINK_ReadReg(XPSR)
T5710 024:838.574 - 0.028ms returns 0x61000000
T5710 024:838.584 JLINK_ReadReg(MSP)
T5710 024:838.592 - 0.008ms returns 0x2000D958
T5710 024:838.602 JLINK_ReadReg(PSP)
T5710 024:838.610 - 0.008ms returns 0x00000000
T5710 024:838.620 JLINK_ReadReg(CFBP)
T5710 024:838.628 - 0.008ms returns 0x04000000
T5710 024:838.638 JLINK_ReadReg(FPSCR)
T5710 024:842.697 - 4.058ms returns 0x00000000
T5710 024:842.720 JLINK_ReadReg(FPS0)
T5710 024:842.732 - 0.011ms returns 0x00000000
T5710 024:842.742 JLINK_ReadReg(FPS1)
T5710 024:842.750 - 0.008ms returns 0x00000000
T5710 024:842.762 JLINK_ReadReg(FPS2)
T5710 024:842.770 - 0.008ms returns 0x00000000
T5710 024:842.783 JLINK_ReadReg(FPS3)
T5710 024:842.791 - 0.008ms returns 0x00000000
T5710 024:842.801 JLINK_ReadReg(FPS4)
T5710 024:842.809 - 0.008ms returns 0x00000000
T5710 024:842.822 JLINK_ReadReg(FPS5)
T5710 024:842.830 - 0.008ms returns 0x00000000
T5710 024:842.841 JLINK_ReadReg(FPS6)
T5710 024:842.850 - 0.008ms returns 0x00000000
T5710 024:842.861 JLINK_ReadReg(FPS7)
T5710 024:842.869 - 0.008ms returns 0x00000000
T5710 024:842.882 JLINK_ReadReg(FPS8)
T5710 024:842.890 - 0.008ms returns 0x00000000
T5710 024:842.903 JLINK_ReadReg(FPS9)
T5710 024:842.911 - 0.008ms returns 0x00000000
T5710 024:842.961 JLINK_ReadReg(FPS10)
T5710 024:842.979 - 0.018ms returns 0x00000000
T5710 024:842.990 JLINK_ReadReg(FPS11)
T5710 024:842.999 - 0.008ms returns 0x00000000
T5710 024:843.008 JLINK_ReadReg(FPS12)
T5710 024:843.017 - 0.008ms returns 0x00000000
T5710 024:843.027 JLINK_ReadReg(FPS13)
T5710 024:843.035 - 0.008ms returns 0x00000000
T5710 024:843.045 JLINK_ReadReg(FPS14)
T5710 024:843.053 - 0.008ms returns 0x00000000
T5710 024:843.063 JLINK_ReadReg(FPS15)
T5710 024:843.071 - 0.008ms returns 0x00000000
T5710 024:843.081 JLINK_ReadReg(FPS16)
T5710 024:843.089 - 0.008ms returns 0x00000000
T5710 024:843.099 JLINK_ReadReg(FPS17)
T5710 024:843.107 - 0.008ms returns 0x00000000
T5710 024:843.116 JLINK_ReadReg(FPS18)
T5710 024:843.125 - 0.008ms returns 0x00000000
T5710 024:843.134 JLINK_ReadReg(FPS19)
T5710 024:843.143 - 0.008ms returns 0x00000000
T5710 024:843.189 JLINK_ReadReg(FPS20)
T5710 024:843.201 - 0.011ms returns 0x00000000
T5710 024:843.211 JLINK_ReadReg(FPS21)
T5710 024:843.219 - 0.008ms returns 0x00000000
T5710 024:843.229 JLINK_ReadReg(FPS22)
T5710 024:843.237 - 0.008ms returns 0x00000000
T5710 024:843.247 JLINK_ReadReg(FPS23)
T5710 024:843.255 - 0.008ms returns 0x00000000
T5710 024:843.265 JLINK_ReadReg(FPS24)
T5710 024:843.273 - 0.008ms returns 0x00000000
T5710 024:843.283 JLINK_ReadReg(FPS25)
T5710 024:843.291 - 0.008ms returns 0x00000000
T5710 024:843.301 JLINK_ReadReg(FPS26)
T5710 024:843.318 - 0.017ms returns 0x00000000
T5710 024:843.328 JLINK_ReadReg(FPS27)
T5710 024:843.336 - 0.008ms returns 0x00000000
T5710 024:843.346 JLINK_ReadReg(FPS28)
T5710 024:843.354 - 0.008ms returns 0x00000000
T5710 024:843.364 JLINK_ReadReg(FPS29)
T5710 024:843.372 - 0.008ms returns 0x00000000
T5710 024:843.382 JLINK_ReadReg(FPS30)
T5710 024:843.390 - 0.008ms returns 0x00000000
T5710 024:843.400 JLINK_ReadReg(FPS31)
T5710 024:843.408 - 0.008ms returns 0x00000000
T5710 024:843.423 JLINK_ReadMemEx(0x200000A0, 0x4 Bytes, Flags = 0x02000000)
T5710 024:843.437   CPU_ReadMem(64 bytes @ 0x20000080)
T5710 024:844.070    -- Updating C cache (64 bytes @ 0x20000080)
T5710 024:844.089    -- Read from C cache (4 bytes @ 0x200000A0)
T5710 024:844.102   Data:  00 00 00 00
T5710 024:844.114 - 0.691ms returns 4 (0x4)
T0F68 024:844.254 JLINK_ReadMemEx(0x20000210, 0x4 Bytes, Flags = 0x02000000)
T0F68 024:844.276   CPU_ReadMem(64 bytes @ 0x20000200)
T0F68 024:844.912    -- Updating C cache (64 bytes @ 0x20000200)
T0F68 024:844.931    -- Read from C cache (4 bytes @ 0x20000210)
T0F68 024:844.943   Data:  00 00 00 00
T0F68 024:844.955 - 0.701ms returns 4 (0x4)
T0F68 024:844.984 JLINK_ReadMemEx(0x200002C0, 0x1 Bytes, Flags = 0x02000000)
T0F68 024:844.997   CPU_ReadMem(64 bytes @ 0x200002C0)
T0F68 024:845.673    -- Updating C cache (64 bytes @ 0x200002C0)
T0F68 024:845.692    -- Read from C cache (1 bytes @ 0x200002C0)
T0F68 024:845.704   Data:  00
T0F68 024:845.716 - 0.732ms returns 1 (0x1)
T0F68 024:845.767 JLINK_ReadMemEx(0x200002C4, 0x4 Bytes, Flags = 0x02000000)
T0F68 024:845.779    -- Read from C cache (4 bytes @ 0x200002C4)
T0F68 024:845.791   Data:  00 00 00 00
T0F68 024:845.802 - 0.035ms returns 4 (0x4)
T0F68 024:846.083 JLINK_ReadMemEx(0x200001D8, 0x4 Bytes, Flags = 0x02000000)
T0F68 024:846.097   CPU_ReadMem(64 bytes @ 0x200001C0)
T0F68 024:846.732    -- Updating C cache (64 bytes @ 0x200001C0)
T0F68 024:846.750    -- Read from C cache (4 bytes @ 0x200001D8)
T0F68 024:846.762   Data:  00 00 40 40
T0F68 024:846.774 - 0.692ms returns 4 (0x4)
T0F68 024:846.813 JLINK_ReadMemEx(0x200001D4, 0x4 Bytes, Flags = 0x02000000)
T0F68 024:846.826    -- Read from C cache (4 bytes @ 0x200001D4)
T0F68 024:846.837   Data:  00 00 00 00
T0F68 024:846.849 - 0.036ms returns 4 (0x4)
T0F68 024:846.870 JLINK_ReadMemEx(0x20000200, 0x4 Bytes, Flags = 0x02000000)
T0F68 024:846.879    -- Read from C cache (4 bytes @ 0x20000200)
T0F68 024:846.891   Data:  00 00 00 00
T0F68 024:846.902 - 0.032ms returns 4 (0x4)
T0F68 024:849.660 JLINK_ReadMemEx(0x200001A0, 0x4 Bytes, Flags = 0x02000000)
T0F68 024:849.691   CPU_ReadMem(64 bytes @ 0x20000180)
T0F68 024:850.331    -- Updating C cache (64 bytes @ 0x20000180)
T0F68 024:850.350    -- Read from C cache (4 bytes @ 0x200001A0)
T0F68 024:850.363   Data:  00 00 A0 C2
T0F68 024:850.375 - 0.714ms returns 4 (0x4)
T0F68 024:851.304 JLINK_ReadMemEx(0x20000228, 0x4 Bytes, Flags = 0x02000000)
T0F68 024:851.322    -- Read from C cache (4 bytes @ 0x20000228)
T0F68 024:851.334   Data:  66 66 E6 3F
T0F68 024:851.346 - 0.042ms returns 4 (0x4)
T0F68 024:851.676 JLINK_ReadMemEx(0x2000018A, 0x2 Bytes, Flags = 0x02000000)
T0F68 024:851.692    -- Read from C cache (2 bytes @ 0x2000018A)
T0F68 024:851.704   Data:  A8 16
T0F68 024:851.716 - 0.040ms returns 2 (0x2)
T0F68 024:852.047 JLINK_ReadMemEx(0x2000018C, 0x2 Bytes, Flags = 0x02000000)
T0F68 024:852.063    -- Read from C cache (2 bytes @ 0x2000018C)
T0F68 024:852.081   Data:  A8 16
T0F68 024:852.093 - 0.045ms returns 2 (0x2)
T0F68 024:852.459 JLINK_ReadMemEx(0x0801382E, 0x2 Bytes, Flags = 0x02000000)
T0F68 024:852.477   CPU_ReadMem(64 bytes @ 0x08013800)
T0F68 024:853.121    -- Updating C cache (64 bytes @ 0x08013800)
T0F68 024:853.139    -- Read from C cache (2 bytes @ 0x0801382E)
T0F68 024:853.151   Data:  EF F7
T0F68 024:853.163 - 0.704ms returns 2 (0x2)
T0F68 024:853.255 JLINK_ReadMemEx(0x08013830, 0x3C Bytes, Flags = 0x02000000)
T0F68 024:853.267   CPU_ReadMem(64 bytes @ 0x08013840)
T0F68 024:853.974    -- Updating C cache (64 bytes @ 0x08013840)
T0F68 024:853.994    -- Read from C cache (60 bytes @ 0x08013830)
T0F68 024:854.007   Data:  B7 FE 00 BF 01 21 05 48 ED F7 C8 FF 00 28 F9 D1 ...
T0F68 024:854.019 - 0.763ms returns 60 (0x3C)
T0F68 024:854.031 JLINK_ReadMemEx(0x08013830, 0x2 Bytes, Flags = 0x02000000)
T0F68 024:854.041    -- Read from C cache (2 bytes @ 0x08013830)
T0F68 024:854.053   Data:  B7 FE
T0F68 024:854.065 - 0.033ms returns 2 (0x2)
T5710 026:679.129 JLINK_ReadMemEx(0x0801382E, 0x2 Bytes, Flags = 0x02000000)
T5710 026:679.158    -- Read from C cache (2 bytes @ 0x0801382E)
T5710 026:679.179   Data:  EF F7
T5710 026:679.191 - 0.063ms returns 2 (0x2)
T5710 026:679.203 JLINK_HasError()
T5710 026:679.215 JLINK_Step()
T5710 026:679.561    -- Read from C cache (2 bytes @ 0x0801382E)
T5710 026:679.583   CPU_ReadMem(4 bytes @ 0xE000ED18)
T5710 026:679.915   CPU_WriteMem(4 bytes @ 0xE000ED18)
T5710 026:680.259   CPU_ReadMem(4 bytes @ 0xE000ED18)
T5710 026:680.573   CPU_WriteMem(4 bytes @ 0xE000ED18)
T5710 026:680.948   CPU_ReadMem(4 bytes @ 0xE0001004)
T5710 026:681.276    -- Read from C cache (2 bytes @ 0x08013830)
T5710 026:681.296   -- Simulated
T5710 026:681.308 - 2.092ms returns 0
